33.921907,,0x00,0xFF,Write,ACK
33.921997,,0x00,0x00,Write,ACK
33.922201,,0x00,0x01,Write,ACK
33.922393,,0x01,0x4B,Read,NAK
33.922597,,0x00,0x02,Write,ACK
33.922789,,0x01,0x00,Read,NAK
33.923057,,0xA0,0x00,Write,ACK
33.923249,,0xA1,0x30,Read,ACK
33.923339,,0xA1,0x00,Read,ACK
33.923429,,0xA1,0x86,Read,ACK
33.923519,,0xA1,0x55,Read,NAK
33.923723,,0xA0,0x08,Write,ACK
33.923915,,0xA1,0xFF,Read,ACK
33.924005,,0xA1,0xFF,Read,ACK
33.924095,,0xA1,0xFF,Read,ACK
33.924185,,0xA1,0xFF,Read,ACK
33.924275,,0xA1,0x25,Read,ACK
33.924365,,0xA1,0x77,Read,ACK
33.924455,,0xA1,0x12,Read,ACK
33.924545,,0xA1,0x27,Read,NAK
33.924751,,0xA0,0x10,Write,ACK
33.924943,,0xA1,0xFF,Read,ACK
33.925033,,0xA1,0xFF,Read,ACK
33.925123,,0xA1,0xFF,Read,ACK
33.925213,,0xA1,0xFF,Read,ACK
33.925303,,0xA1,0xFF,Read,ACK
33.925393,,0xA1,0xFF,Read,ACK
33.925483,,0xA1,0xFF,Read,ACK
33.925573,,0xA1,0xFF,Read,NAK
33.925777,,0xA0,0x18,Write,ACK
33.925969,,0xA1,0xFF,Read,ACK
33.926059,,0xA1,0xFF,Read,ACK
33.926149,,0xA1,0xFF,Read,ACK
33.926239,,0xA1,0xFF,Read,ACK
33.926329,,0xA1,0xFF,Read,ACK
33.926419,,0xA1,0xFF,Read,ACK
33.926509,,0xA1,0xFF,Read,ACK
33.926599,,0xA1,0xFF,Read,NAK
33.926803,,0xA0,0x20,Write,ACK
33.926995,,0xA1,0xFF,Read,ACK
33.927085,,0xA1,0xFF,Read,ACK
33.927175,,0xA1,0xFF,Read,ACK
33.927265,,0xA1,0xFF,Read,ACK
33.927355,,0xA1,0xFF,Read,ACK
33.927445,,0xA1,0xFF,Read,ACK
33.927535,,0xA1,0xFF,Read,ACK
33.927625,,0xA1,0xFF,Read,NAK
33.927829,,0xA0,0x28,Write,ACK
33.928021,,0xA1,0xFF,Read,ACK
33.928111,,0xA1,0xFF,Read,ACK
33.928201,,0xA1,0xFF,Read,ACK
33.928291,,0xA1,0xFF,Read,ACK
33.928381,,0xA1,0xFF,Read,ACK
33.928471,,0xA1,0xFF,Read,ACK
33.928561,,0xA1,0xFF,Read,ACK
33.928651,,0xA1,0xFF,Read,NAK
33.928855,,0xA0,0x30,Write,ACK
33.929047,,0xA1,0xFF,Read,ACK
33.929137,,0xA1,0xFF,Read,ACK
33.929227,,0xA1,0xFF,Read,ACK
33.929317,,0xA1,0xFF,Read,ACK
33.929407,,0xA1,0xFF,Read,ACK
33.929497,,0xA1,0xFF,Read,ACK
33.929587,,0xA1,0xFF,Read,ACK
33.929677,,0xA1,0xFF,Read,NAK
33.929881,,0xA0,0x38,Write,ACK
33.930073,,0xA1,0xFF,Read,ACK
33.930163,,0xA1,0xFF,Read,ACK
33.930253,,0xA1,0xFF,Read,ACK
33.930343,,0xA1,0xFF,Read,ACK
33.930433,,0xA1,0xFF,Read,ACK
33.930523,,0xA1,0xFF,Read,ACK
33.930613,,0xA1,0xFF,Read,ACK
33.930703,,0xA1,0xFF,Read,NAK
33.930907,,0xA0,0x40,Write,ACK
33.931099,,0xA1,0xFF,Read,ACK
33.931189,,0xA1,0xFF,Read,ACK
33.931279,,0xA1,0xFF,Read,ACK
33.931369,,0xA1,0xFF,Read,ACK
33.931459,,0xA1,0xFF,Read,ACK
33.931549,,0xA1,0xFF,Read,ACK
33.931639,,0xA1,0xFF,Read,ACK
33.931729,,0xA1,0xFF,Read,NAK
33.931933,,0xA0,0x48,Write,ACK
33.932125,,0xA1,0xFF,Read,ACK
33.932215,,0xA1,0xFF,Read,ACK
33.932305,,0xA1,0xFF,Read,ACK
33.932395,,0xA1,0xFF,Read,ACK
33.932485,,0xA1,0xFF,Read,ACK
33.932575,,0xA1,0xFF,Read,ACK
33.932665,,0xA1,0xFF,Read,ACK
33.932755,,0xA1,0xFF,Read,NAK
33.932959,,0xA0,0x50,Write,ACK
33.933151,,0xA1,0xFF,Read,ACK
33.933241,,0xA1,0xFF,Read,ACK
33.933331,,0xA1,0xFF,Read,ACK
33.933421,,0xA1,0xFF,Read,ACK
33.933511,,0xA1,0xFF,Read,ACK
33.933601,,0xA1,0xFF,Read,ACK
33.933691,,0xA1,0xFF,Read,ACK
33.933781,,0xA1,0xFF,Read,NAK
33.933985,,0xA0,0x58,Write,ACK
33.934177,,0xA1,0xFF,Read,ACK
33.934267,,0xA1,0xFF,Read,ACK
33.934357,,0xA1,0xFF,Read,ACK
33.934447,,0xA1,0xFF,Read,ACK
33.934537,,0xA1,0xFF,Read,ACK
33.934627,,0xA1,0xFF,Read,ACK
33.934717,,0xA1,0xFF,Read,ACK
33.934807,,0xA1,0xFF,Read,NAK
33.935011,,0xA0,0x60,Write,ACK
33.935203,,0xA1,0xFF,Read,ACK
33.935293,,0xA1,0xFF,Read,ACK
33.935383,,0xA1,0xFF,Read,ACK
33.935473,,0xA1,0xFF,Read,ACK
33.935563,,0xA1,0xFF,Read,ACK
33.935653,,0xA1,0xFF,Read,ACK
33.935743,,0xA1,0xFF,Read,ACK
33.935833,,0xA1,0xFF,Read,NAK
33.936037,,0xA0,0x68,Write,ACK
33.936229,,0xA1,0xFF,Read,ACK
33.936319,,0xA1,0xFF,Read,ACK
33.936409,,0xA1,0xFF,Read,ACK
33.936499,,0xA1,0xFF,Read,ACK
33.936589,,0xA1,0xFF,Read,ACK
33.936679,,0xA1,0xFF,Read,ACK
33.936769,,0xA1,0xFF,Read,ACK
33.936859,,0xA1,0xFF,Read,NAK
33.937063,,0xA0,0x70,Write,ACK
33.937255,,0xA1,0xFF,Read,ACK
33.937345,,0xA1,0xFF,Read,ACK
33.937435,,0xA1,0xFF,Read,ACK
33.937525,,0xA1,0xFF,Read,ACK
33.937615,,0xA1,0xFF,Read,ACK
33.937705,,0xA1,0xFF,Read,ACK
33.937795,,0xA1,0xFF,Read,ACK
33.937885,,0xA1,0xFF,Read,NAK
33.938089,,0xA0,0x78,Write,ACK
33.938281,,0xA1,0xFF,Read,ACK
33.938371,,0xA1,0xFF,Read,ACK
33.938461,,0xA1,0xFF,Read,ACK
33.938551,,0xA1,0xFF,Read,ACK
33.938641,,0xA1,0xFF,Read,ACK
33.938731,,0xA1,0xFF,Read,ACK
33.938821,,0xA1,0xFF,Read,ACK
33.938911,,0xA1,0xFF,Read,NAK
33.939115,,0xA0,0x80,Write,ACK
33.939307,,0xA1,0xFF,Read,ACK
33.939397,,0xA1,0xFF,Read,ACK
33.939487,,0xA1,0xFF,Read,ACK
33.939577,,0xA1,0xFF,Read,ACK
33.939667,,0xA1,0xFF,Read,ACK
33.939757,,0xA1,0xFF,Read,ACK
33.939847,,0xA1,0xFF,Read,ACK
33.939937,,0xA1,0xFF,Read,NAK
33.940141,,0xA0,0x88,Write,ACK
33.940333,,0xA1,0xFF,Read,ACK
33.940423,,0xA1,0xFF,Read,ACK
33.940513,,0xA1,0xFF,Read,ACK
33.940603,,0xA1,0xFF,Read,ACK
33.940693,,0xA1,0xFF,Read,ACK
33.940783,,0xA1,0xFF,Read,ACK
33.940873,,0xA1,0xFF,Read,ACK
33.940963,,0xA1,0xFF,Read,NAK
33.941167,,0xA0,0x90,Write,ACK
33.941359,,0xA1,0xFF,Read,ACK
33.941449,,0xA1,0xFF,Read,ACK
33.941539,,0xA1,0xFF,Read,ACK
33.941629,,0xA1,0xFF,Read,ACK
33.941719,,0xA1,0xFF,Read,ACK
33.941809,,0xA1,0xFF,Read,ACK
33.941899,,0xA1,0xFF,Read,ACK
33.941989,,0xA1,0xFF,Read,NAK
33.942193,,0xA0,0x98,Write,ACK
33.942385,,0xA1,0xFF,Read,ACK
33.942475,,0xA1,0xFF,Read,ACK
33.942565,,0xA1,0xFF,Read,ACK
33.942655,,0xA1,0xFF,Read,ACK
33.942745,,0xA1,0xFF,Read,ACK
33.942835,,0xA1,0xFF,Read,ACK
33.942925,,0xA1,0xFF,Read,ACK
33.943015,,0xA1,0xFF,Read,NAK
33.943219,,0xA0,0xA0,Write,ACK
33.943411,,0xA1,0xFF,Read,ACK
33.943501,,0xA1,0xFF,Read,ACK
33.943591,,0xA1,0xFF,Read,ACK
33.943681,,0xA1,0xFF,Read,ACK
33.943771,,0xA1,0xFF,Read,ACK
33.943861,,0xA1,0xFF,Read,ACK
33.943951,,0xA1,0xFF,Read,ACK
33.944041,,0xA1,0xFF,Read,NAK
33.944245,,0xA0,0xA8,Write,ACK
33.944437,,0xA1,0xFF,Read,ACK
33.944527,,0xA1,0xFF,Read,ACK
33.944617,,0xA1,0xFF,Read,ACK
33.944707,,0xA1,0xFF,Read,ACK
33.944797,,0xA1,0xFF,Read,ACK
33.944887,,0xA1,0xFF,Read,ACK
33.944977,,0xA1,0xFF,Read,ACK
33.945067,,0xA1,0xFF,Read,NAK
33.945271,,0xA0,0xB0,Write,ACK
33.945463,,0xA1,0xFF,Read,ACK
33.945553,,0xA1,0xFF,Read,ACK
33.945643,,0xA1,0xFF,Read,ACK
33.945733,,0xA1,0xFF,Read,ACK
33.945823,,0xA1,0xFF,Read,ACK
33.945913,,0xA1,0xFF,Read,ACK
33.946003,,0xA1,0xFF,Read,ACK
33.946093,,0xA1,0xFF,Read,NAK
33.946297,,0xA0,0xB8,Write,ACK
33.946489,,0xA1,0xFF,Read,ACK
33.946579,,0xA1,0xFF,Read,ACK
33.946669,,0xA1,0xFF,Read,ACK
33.946759,,0xA1,0xFF,Read,ACK
33.946849,,0xA1,0xFF,Read,ACK
33.946939,,0xA1,0xFF,Read,ACK
33.947029,,0xA1,0xFF,Read,ACK
33.947119,,0xA1,0xFF,Read,NAK
33.947323,,0xA0,0xC0,Write,ACK
33.947515,,0xA1,0xFF,Read,ACK
33.947605,,0xA1,0xFF,Read,ACK
33.947695,,0xA1,0xFF,Read,ACK
33.947785,,0xA1,0xFF,Read,ACK
33.947875,,0xA1,0xFF,Read,ACK
33.947965,,0xA1,0xFF,Read,ACK
33.948055,,0xA1,0xFF,Read,ACK
33.948145,,0xA1,0xFF,Read,NAK
33.948349,,0xA0,0xC8,Write,ACK
33.948541,,0xA1,0xFF,Read,ACK
33.948631,,0xA1,0xFF,Read,ACK
33.948721,,0xA1,0xFF,Read,ACK
33.948811,,0xA1,0xFF,Read,ACK
33.948901,,0xA1,0xFF,Read,ACK
33.948991,,0xA1,0xFF,Read,ACK
33.949081,,0xA1,0xFF,Read,ACK
33.949171,,0xA1,0xFF,Read,NAK
33.949375,,0xA0,0xD0,Write,ACK
33.949567,,0xA1,0xFF,Read,ACK
33.949657,,0xA1,0xFF,Read,ACK
33.949747,,0xA1,0xFF,Read,ACK
33.949837,,0xA1,0xFF,Read,ACK
33.949927,,0xA1,0xFF,Read,ACK
33.950017,,0xA1,0xFF,Read,ACK
33.950107,,0xA1,0xFF,Read,ACK
33.950197,,0xA1,0xFF,Read,NAK
33.950401,,0xA0,0xD8,Write,ACK
33.950593,,0xA1,0xFF,Read,ACK
33.950683,,0xA1,0xFF,Read,ACK
33.950773,,0xA1,0xFF,Read,ACK
33.950863,,0xA1,0xFF,Read,ACK
33.950953,,0xA1,0xFF,Read,ACK
33.951043,,0xA1,0xFF,Read,ACK
33.951133,,0xA1,0xFF,Read,ACK
33.951223,,0xA1,0xFF,Read,NAK
33.951427,,0xA0,0xE0,Write,ACK
33.951619,,0xA1,0xFF,Read,ACK
33.951709,,0xA1,0xFF,Read,ACK
33.951799,,0xA1,0xFF,Read,ACK
33.951889,,0xA1,0xFF,Read,ACK
33.951979,,0xA1,0xFF,Read,ACK
33.952069,,0xA1,0xFF,Read,ACK
33.952159,,0xA1,0xFF,Read,ACK
33.952249,,0xA1,0xFF,Read,NAK
33.952453,,0xA0,0xE8,Write,ACK
33.952645,,0xA1,0xFF,Read,ACK
33.952735,,0xA1,0xFF,Read,ACK
33.952825,,0xA1,0xFF,Read,ACK
33.952915,,0xA1,0xFF,Read,ACK
33.953005,,0xA1,0xFF,Read,ACK
33.953095,,0xA1,0xFF,Read,ACK
33.953185,,0xA1,0xFF,Read,ACK
33.953275,,0xA1,0xFF,Read,NAK
33.953479,,0xA0,0xF0,Write,ACK
33.953671,,0xA1,0xFF,Read,ACK
33.953761,,0xA1,0xFF,Read,ACK
33.953851,,0xA1,0xFF,Read,ACK
33.953941,,0xA1,0xFF,Read,ACK
33.954031,,0xA1,0xFF,Read,ACK
33.954121,,0xA1,0xFF,Read,ACK
33.954211,,0xA1,0xFF,Read,ACK
33.954301,,0xA1,0xFF,Read,NAK
33.954505,,0xA0,0xF8,Write,ACK
33.954697,,0xA1,0xFF,Read,ACK
33.954787,,0xA1,0xFF,Read,ACK
33.954877,,0xA1,0xFF,Read,ACK
33.954967,,0xA1,0xFF,Read,ACK
33.955057,,0xA1,0xFF,Read,ACK
33.955147,,0xA1,0xFF,Read,ACK
33.955237,,0xA1,0xFF,Read,ACK
33.955327,,0xA1,0xFF,Read,NAK
49.1313375,,0x00,0xFF,Write,ACK
49.1314275,,0x00,0x00,Write,ACK
49.1316315,,0x00,0x01,Write,ACK
49.1318235,,0x01,0x4B,Read,NAK
49.1320275,,0x00,0x02,Write,ACK
49.1322195,,0x01,0x00,Read,NAK
49.1327815,,0x00,0x03,Write,ACK
49.1328715,,0x00,0x28,Write,ACK
49.1330775,,0x00,0xFF,Write,ACK
49.1331675,,0x00,0x03,Write,ACK
49.1333695,,0x00,0x00,Write,ACK
49.1334595,,0x00,0xFF,Write,ACK
49.1336655,,0x00,0x01,Write,ACK
49.1337555,,0x00,0xFF,Write,ACK
49.1339615,,0x00,0x02,Write,ACK
49.1340515,,0x00,0xFF,Write,ACK
49.1342555,,0x00,0x03,Write,ACK
49.1343455,,0x00,0xFF,Write,ACK
49.1345515,,0x00,0x04,Write,ACK
49.1346415,,0x00,0xFF,Write,ACK
49.1348475,,0x00,0x05,Write,ACK
49.1349375,,0x00,0xFF,Write,ACK
49.1351435,,0x00,0x06,Write,ACK
49.1352335,,0x00,0xFF,Write,ACK
49.1354395,,0x00,0x07,Write,ACK
49.1355295,,0x00,0xFF,Write,ACK
49.1357355,,0x00,0x08,Write,ACK
49.1358255,,0x00,0xFF,Write,ACK
49.1360295,,0x00,0x09,Write,ACK
49.1361195,,0x00,0xFF,Write,ACK
49.1363235,,0x00,0x0A,Write,ACK
49.1364135,,0x00,0xFF,Write,ACK
49.1366175,,0x00,0x0B,Write,ACK
49.1367075,,0x00,0xFF,Write,ACK
49.1369115,,0x00,0x0C,Write,ACK
49.1370015,,0x00,0xFF,Write,ACK
49.1372055,,0x00,0x0D,Write,ACK
49.1372955,,0x00,0xFF,Write,ACK
49.1375015,,0x00,0x0E,Write,ACK
49.1375915,,0x00,0xFF,Write,ACK
49.1377955,,0x00,0x0F,Write,ACK
49.1378855,,0x00,0xFF,Write,ACK
49.1380915,,0x00,0x10,Write,ACK
49.1381815,,0x00,0xFF,Write,ACK
49.1383855,,0x00,0x11,Write,ACK
49.1384755,,0x00,0xFF,Write,ACK
49.1386815,,0x00,0x12,Write,ACK
49.1387715,,0x00,0xFF,Write,ACK
49.1389755,,0x00,0x13,Write,ACK
49.1390655,,0x00,0xFF,Write,ACK
49.1392715,,0x00,0x14,Write,ACK
49.1393615,,0x00,0xFF,Write,ACK
49.1395655,,0x00,0x15,Write,ACK
49.1396555,,0x00,0xFF,Write,ACK
49.1398615,,0x00,0x16,Write,ACK
49.1399515,,0x00,0xFF,Write,ACK
49.1401575,,0x00,0x17,Write,ACK
49.1402475,,0x00,0xFF,Write,ACK
49.1404515,,0x00,0x18,Write,ACK
49.1405415,,0x00,0xFF,Write,ACK
49.1407475,,0x00,0x19,Write,ACK
49.1408375,,0x00,0xFF,Write,ACK
49.1415095,,0x00,0x1A,Write,ACK
49.1415995,,0x00,0xFF,Write,ACK
49.1418035,,0x00,0x1B,Write,ACK
49.1418935,,0x00,0xFF,Write,ACK
49.1420975,,0x00,0x1C,Write,ACK
49.1421875,,0x00,0xFF,Write,ACK
49.1423935,,0x00,0x1D,Write,ACK
49.1424835,,0x00,0xFF,Write,ACK
49.1426895,,0x00,0x1E,Write,ACK
49.1427795,,0x00,0xFF,Write,ACK
49.1429855,,0x00,0x1F,Write,ACK
49.1430755,,0x00,0xFF,Write,ACK
49.1432795,,0x00,0x20,Write,ACK
49.1433695,,0x00,0xFF,Write,ACK
49.1435735,,0x00,0x21,Write,ACK
49.1436635,,0x00,0xFF,Write,ACK
49.1438695,,0x00,0x22,Write,ACK
49.1439595,,0x00,0xFF,Write,ACK
49.1441635,,0x00,0x23,Write,ACK
49.1442535,,0x00,0xFF,Write,ACK
49.1444575,,0x00,0x24,Write,ACK
49.1445475,,0x00,0xFF,Write,ACK
49.1447535,,0x00,0x25,Write,ACK
49.1448435,,0x00,0xFF,Write,ACK
49.1450495,,0x00,0x26,Write,ACK
49.1451395,,0x00,0xFF,Write,ACK
49.1453435,,0x00,0x27,Write,ACK
49.1454335,,0x00,0xFF,Write,ACK
49.1456375,,0x00,0x28,Write,ACK
49.1457275,,0x00,0xFF,Write,ACK
49.1459335,,0x00,0x29,Write,ACK
49.1460235,,0x00,0xFF,Write,ACK
49.1462275,,0x00,0x2A,Write,ACK
49.1463175,,0x00,0xFF,Write,ACK
49.1465215,,0x00,0x2B,Write,ACK
49.1466115,,0x00,0xFF,Write,ACK
49.1468155,,0x00,0x2C,Write,ACK
49.1469055,,0x00,0xFF,Write,ACK
49.1471095,,0x00,0x2D,Write,ACK
49.1471995,,0x00,0xFF,Write,ACK
49.1474055,,0x00,0x2E,Write,ACK
49.1474955,,0x00,0xFF,Write,ACK
49.1476995,,0x00,0x2F,Write,ACK
49.1477895,,0x00,0xFF,Write,ACK
49.1479935,,0x00,0x30,Write,ACK
49.1480835,,0x00,0xFF,Write,ACK
49.1482895,,0x00,0x31,Write,ACK
49.1483795,,0x00,0xFF,Write,ACK
49.1485835,,0x00,0x32,Write,ACK
49.1486735,,0x00,0xFF,Write,ACK
49.1488795,,0x00,0x33,Write,ACK
49.1489695,,0x00,0xFF,Write,ACK
49.1491755,,0x00,0x34,Write,ACK
49.1492655,,0x00,0xFF,Write,ACK
49.1494715,,0x00,0x35,Write,ACK
49.1495615,,0x00,0xFF,Write,ACK
49.1497675,,0x00,0x36,Write,ACK
49.1498575,,0x00,0xFF,Write,ACK
49.1500615,,0x00,0x37,Write,ACK
49.1501515,,0x00,0xFF,Write,ACK
49.1503555,,0x00,0x38,Write,ACK
49.1504455,,0x00,0xFF,Write,ACK
49.1506515,,0x00,0x39,Write,ACK
49.1507415,,0x00,0xFF,Write,ACK
49.1512355,,0x00,0x3A,Write,ACK
49.1513255,,0x00,0xFF,Write,ACK
49.1515375,,0x00,0x3B,Write,ACK
49.1516275,,0x00,0xFF,Write,ACK
49.1518315,,0x00,0x3C,Write,ACK
49.1519215,,0x00,0xFF,Write,ACK
49.1521255,,0x00,0x3D,Write,ACK
49.1522155,,0x00,0xFF,Write,ACK
49.1524195,,0x00,0x3E,Write,ACK
49.1525095,,0x00,0xFF,Write,ACK
49.1527135,,0x00,0x3F,Write,ACK
49.1528035,,0x00,0xFF,Write,ACK
49.1530095,,0x00,0x40,Write,ACK
49.1530995,,0x00,0xFF,Write,ACK
49.1533035,,0x00,0x41,Write,ACK
49.1533935,,0x00,0xFF,Write,ACK
49.1535995,,0x00,0x42,Write,ACK
49.1536895,,0x00,0xFF,Write,ACK
49.1538935,,0x00,0x43,Write,ACK
49.1539835,,0x00,0xFF,Write,ACK
49.1541875,,0x00,0x44,Write,ACK
49.1542775,,0x00,0xFF,Write,ACK
49.1544835,,0x00,0x45,Write,ACK
49.1545735,,0x00,0xFF,Write,ACK
49.1547775,,0x00,0x46,Write,ACK
49.1548675,,0x00,0xFF,Write,ACK
49.1550735,,0x00,0x47,Write,ACK
49.1551635,,0x00,0xFF,Write,ACK
49.1553675,,0x00,0x48,Write,ACK
49.1554575,,0x00,0xFF,Write,ACK
49.1556615,,0x00,0x49,Write,ACK
49.1557515,,0x00,0xFF,Write,ACK
49.1559555,,0x00,0x4A,Write,ACK
49.1560455,,0x00,0xFF,Write,ACK
49.1562515,,0x00,0x4B,Write,ACK
49.1563415,,0x00,0xFF,Write,ACK
49.1565455,,0x00,0x4C,Write,ACK
49.1566355,,0x00,0xFF,Write,ACK
49.1568415,,0x00,0x4D,Write,ACK
49.1569315,,0x00,0xFF,Write,ACK
49.1571355,,0x00,0x4E,Write,ACK
49.1572255,,0x00,0xFF,Write,ACK
49.1574295,,0x00,0x4F,Write,ACK
49.1575195,,0x00,0xFF,Write,ACK
49.1580355,,0x00,0xFF,Write,ACK
49.1581255,,0x00,0x00,Write,ACK
49.1583295,,0x00,0x04,Write,ACK
49.1584195,,0x00,0x55,Write,ACK
49.1586255,,0x00,0xFF,Write,ACK
49.1587155,,0x00,0x21,Write,ACK
49.1589175,,0x00,0x00,Write,ACK
49.1590075,,0x00,0x1F,Write,ACK
49.203467,,0x00,0x00,Write,ACK
49.203557,,0x00,0x1E,Write,ACK
49.203761,,0x00,0x00,Write,ACK
49.203851,,0x00,0x1F,Write,ACK
49.204055,,0x00,0x01,Write,ACK
49.204247,,0x01,0x77,Read,ACK
49.204337,,0x01,0x77,Read,NAK
61.8798165,,0x00,0xFF,Write,ACK
61.8799065,,0x00,0x03,Write,ACK
61.8801085,,0x00,0x2A,Write,ACK
61.8801985,,0x00,0xFF,Write,ACK
61.8854785,,0x00,0xFF,Write,ACK
61.8855685,,0x00,0x00,Write,ACK
61.8857725,,0x00,0x04,Write,ACK
61.8858625,,0x00,0x55,Write,ACK
68.3965045,,0x00,0xFF,Write,ACK
68.3965945,,0x00,0x03,Write,ACK
68.3967965,,0x00,0x1A,Write,ACK
68.3968865,,0x00,0x3D,Write,ACK
68.4033985,,0x00,0x2A,Write,ACK
68.4034885,,0x00,0x35,Write,ACK
68.4081725,,0x00,0xFF,Write,ACK
68.4082625,,0x00,0x00,Write,ACK
68.4084645,,0x00,0x04,Write,ACK
68.4085545,,0x00,0x55,Write,ACK
79.260939,,0x00,0xFF,Write,ACK
79.261029,,0x00,0x21,Write,ACK
79.261231,,0x00,0x00,Write,ACK
79.261321,,0x00,0x1E,Write,ACK
79.261525,,0x00,0x00,Write,ACK
79.261615,,0x00,0x1F,Write,ACK
79.261819,,0x00,0x01,Write,ACK
79.262011,,0x01,0x77,Read,ACK
79.262101,,0x01,0x77,Read,NAK
109.291069,,0x00,0x00,Write,ACK
109.291159,,0x00,0x1E,Write,ACK
109.291363,,0x00,0x00,Write,ACK
109.291453,,0x00,0x1F,Write,ACK
109.291657,,0x00,0x01,Write,ACK
109.291849,,0x01,0x77,Read,ACK
109.291939,,0x01,0x77,Read,NAK
139.290895,,0x00,0x00,Write,ACK
139.290985,,0x00,0x1E,Write,ACK
139.291189,,0x00,0x00,Write,ACK
139.291279,,0x00,0x1F,Write,ACK
139.291483,,0x00,0x01,Write,ACK
139.291675,,0x01,0x77,Read,ACK
139.291765,,0x01,0x77,Read,NAK
169.310662,,0x00,0x00,Write,ACK
169.310752,,0x00,0x1E,Write,ACK
169.310956,,0x00,0x00,Write,ACK
169.311046,,0x00,0x1F,Write,ACK
169.31125,,0x00,0x01,Write,ACK
169.311442,,0x01,0x77,Read,ACK
169.311532,,0x01,0x77,Read,NAK
199.3402505,,0x00,0x00,Write,ACK
199.3403405,,0x00,0x1E,Write,ACK
199.3405445,,0x00,0x00,Write,ACK
199.3406345,,0x00,0x1F,Write,ACK
199.3408385,,0x00,0x01,Write,ACK
199.3410305,,0x01,0x77,Read,ACK
199.3411205,,0x01,0x77,Read,NAK
229.350388,,0x00,0x00,Write,ACK
229.350478,,0x00,0x1E,Write,ACK
229.350682,,0x00,0x00,Write,ACK
229.350772,,0x00,0x1F,Write,ACK
229.350976,,0x00,0x01,Write,ACK
229.351168,,0x01,0x77,Read,ACK
229.351258,,0x01,0x77,Read,NAK
259.390154,,0x00,0x00,Write,ACK
259.390244,,0x00,0x1E,Write,ACK
259.390448,,0x00,0x00,Write,ACK
259.390538,,0x00,0x1F,Write,ACK
259.390742,,0x00,0x01,Write,ACK
259.390934,,0x01,0x77,Read,ACK
259.391024,,0x01,0x77,Read,NAK
289.419795,,0x00,0x00,Write,ACK
289.4198855,,0x00,0x1E,Write,ACK
289.420089,,0x00,0x00,Write,ACK
289.420179,,0x00,0x1F,Write,ACK
289.420383,,0x00,0x01,Write,ACK
289.420575,,0x01,0x77,Read,ACK
289.420665,,0x01,0x77,Read,NAK
319.4298255,,0x00,0x00,Write,ACK
319.4299155,,0x00,0x1E,Write,ACK
319.4301195,,0x00,0x00,Write,ACK
319.4302095,,0x00,0x1F,Write,ACK
319.4304135,,0x00,0x01,Write,ACK
319.4306055,,0x01,0x77,Read,ACK
319.4306955,,0x01,0x77,Read,NAK
349.449652,,0x00,0x00,Write,ACK
349.449742,,0x00,0x1E,Write,ACK
349.449946,,0x00,0x00,Write,ACK
349.450036,,0x00,0x1F,Write,ACK
349.45024,,0x00,0x01,Write,ACK
349.450432,,0x01,0x77,Read,ACK
349.450522,,0x01,0x77,Read,NAK
379.5094865,,0x00,0x00,Write,ACK
379.5095765,,0x00,0x1E,Write,ACK
379.5097805,,0x00,0x00,Write,ACK
379.5098705,,0x00,0x1F,Write,ACK
379.5100745,216,0x00,0x01,Write,ACK
379.5102665,,0x01,0x77,Read,ACK
379.5103565,,0x01,0x77,Read,NAK
